date Mon Aug 25 09:00:00 2026
base hex  timestamps absolute
internal events logged
Begin Triggerblock Mon Aug 25 09:00:00.000 2026
   0.000000 1  100             Rx   d 8 8C 00 90 00 82 00 A0 00
   0.100000 1  100             Rx   d 8 8D 00 91 00 83 00 A0 00
   0.200000 1  100             Rx   d 8 8E 00 92 00 84 00 A0 00
   0.300000 1  100             Rx   d 8 8F 00 93 00 85 00 9F 00
   0.400000 1  100             Rx   d 8 90 00 94 00 86 00 9F 00
   0.500000 1  100             Rx   d 8 91 00 95 00 87 00 9F 00
   0.600000 1  100             Rx   d 8 92 00 96 00 88 00 9F 00
   0.700000 1  100             Rx   d 8 93 00 97 00 89 00 9F 00
   0.800000 1  100             Rx   d 8 94 00 98 00 8A 00 9E 00
   0.900000 1  100             Rx   d 8 95 00 99 00 8B 00 9E 00
   1.000000 1  100             Rx   d 8 96 00 9A 00 8C 00 9E 00
   1.100000 1  100             Rx   d 8 97 00 9B 00 8D 00 9E 00
   1.200000 1  100             Rx   d 8 98 00 9C 00 8E 00 9E 00
   1.300000 1  100             Rx   d 8 99 00 9D 00 8F 00 9D 00
   1.400000 1  100             Rx   d 8 9A 00 9E 00 90 00 9D 00
   1.500000 1  100             Rx   d 8 9B 00 9F 00 91 00 9D 00
   1.600000 1  100             Rx   d 8 9C 00 A0 00 92 00 9D 00
   1.700000 1  100             Rx   d 8 9D 00 A1 00 93 00 9D 00
   1.800000 1  100             Rx   d 8 9E 00 A2 00 94 00 9C 00
   1.900000 1  100             Rx   d 8 9F 00 A3 00 95 00 9C 00
   2.000000 1  100             Rx   d 8 A0 00 A4 00 96 00 9C 00
   2.100000 1  100             Rx   d 8 A1 00 A5 00 97 00 9C 00
   2.200000 1  100             Rx   d 8 A2 00 A6 00 98 00 9C 00
   2.300000 1  100             Rx   d 8 A3 00 A7 00 99 00 9B 00
   2.400000 1  100             Rx   d 8 A4 00 A8 00 9A 00 9B 00
   2.500000 1  100             Rx   d 8 A5 00 A9 00 9B 00 9B 00
   2.600000 1  100             Rx   d 8 A6 00 AA 00 9C 00 9B 00
   2.700000 1  100             Rx   d 8 A7 00 AB 00 9D 00 9B 00
   2.800000 1  100             Rx   d 8 A8 00 AC 00 9E 00 9A 00
   2.900000 1  100             Rx   d 8 A9 00 AD 00 9F 00 9A 00
   3.000000 1  100             Rx   d 8 AA 00 AE 00 A0 00 9A 00
   3.100000 1  100             Rx   d 8 AB 00 AF 00 A1 00 9A 00
   3.200000 1  100             Rx   d 8 AC 00 B0 00 A2 00 9A 00
   3.300000 1  100             Rx   d 8 AD 00 B1 00 A3 00 99 00
   3.400000 1  100             Rx   d 8 AE 00 B2 00 A4 00 99 00
   3.500000 1  100             Rx   d 8 AF 00 B3 00 A5 00 99 00
   3.600000 1  100             Rx   d 8 B0 00 B4 00 A6 00 99 00
   3.700000 1  100             Rx   d 8 B1 00 B5 00 A7 00 99 00
   3.800000 1  100             Rx   d 8 B2 00 B6 00 A8 00 98 00
   3.900000 1  100             Rx   d 8 B3 00 B7 00 A9 00 98 00
   4.000000 1  100             Rx   d 8 B4 00 B8 00 AA 00 98 00
   4.100000 1  100             Rx   d 8 B5 00 B9 00 AB 00 98 00
   4.200000 1  100             Rx   d 8 B6 00 BA 00 AC 00 98 00
   4.300000 1  100             Rx   d 8 B7 00 BB 00 AD 00 97 00
   4.400000 1  100             Rx   d 8 B8 00 BC 00 AE 00 97 00
   4.500000 1  100             Rx   d 8 B9 00 BD 00 AF 00 97 00
   4.600000 1  100             Rx   d 8 BA 00 BE 00 B0 00 97 00
   4.700000 1  100             Rx   d 8 BB 00 BF 00 B1 00 97 00
   4.800000 1  100             Rx   d 8 BC 00 C0 00 B2 00 96 00
   4.900000 1  100             Rx   d 8 BD 00 C1 00 B3 00 96 00
   5.000000 1  100             Rx   d 8 BE 00 C2 00 B4 00 96 00
   5.100000 1  100             Rx   d 8 BF 00 C3 00 B5 00 96 00
   5.200000 1  100             Rx   d 8 C0 00 C4 00 B6 00 96 00
   5.300000 1  100             Rx   d 8 C1 00 C5 00 B7 00 95 00
   5.400000 1  100             Rx   d 8 C2 00 C6 00 B8 00 95 00
   5.500000 1  100             Rx   d 8 C3 00 C7 00 B9 00 95 00
   5.600000 1  100             Rx   d 8 C4 00 C8 00 BA 00 95 00
   5.700000 1  100             Rx   d 8 C5 00 C9 00 BB 00 95 00
   5.800000 1  100             Rx   d 8 C6 00 CA 00 BC 00 94 00
   5.900000 1  100             Rx   d 8 C7 00 CB 00 BD 00 94 00
   6.000000 1  100             Rx   d 8 C8 00 CC 00 BE 00 94 00
   6.100000 1  100             Rx   d 8 C9 00 CD 00 BF 00 94 00
   6.200000 1  100             Rx   d 8 CA 00 CE 00 C0 00 94 00
   6.300000 1  100             Rx   d 8 CB 00 CF 00 C1 00 93 00
   6.400000 1  100             Rx   d 8 CC 00 D0 00 C2 00 93 00
   6.500000 1  100             Rx   d 8 CD 00 D1 00 C3 00 93 00
   6.600000 1  100             Rx   d 8 CE 00 D2 00 C4 00 93 00
   6.700000 1  100             Rx   d 8 CF 00 D3 00 C5 00 93 00
   6.800000 1  100             Rx   d 8 D0 00 D4 00 C6 00 92 00
   6.900000 1  100             Rx   d 8 D1 00 D5 00 C7 00 92 00
   7.000000 1  100             Rx   d 8 D2 00 D6 00 C8 00 78 00
   7.100000 1  100             Rx   d 8 D1 00 D5 00 C7 00 78 00
   7.200000 1  100             Rx   d 8 D0 00 D4 00 C6 00 78 00
   7.300000 1  100             Rx   d 8 CF 00 D3 00 C5 00 79 00
   7.400000 1  100             Rx   d 8 CE 00 D2 00 C4 00 79 00
   7.500000 1  100             Rx   d 8 CD 00 D1 00 C3 00 79 00
   7.600000 1  100             Rx   d 8 CC 00 D0 00 C2 00 79 00
   7.700000 1  100             Rx   d 8 CB 00 CF 00 C1 00 79 00
   7.800000 1  100             Rx   d 8 CA 00 CE 00 C0 00 7A 00
   7.900000 1  100             Rx   d 8 C9 00 CD 00 BF 00 7A 00
   8.000000 1  100             Rx   d 8 C8 00 CC 00 BE 00 7A 00
   8.100000 1  100             Rx   d 8 C7 00 CB 00 BD 00 7A 00
   8.200000 1  100             Rx   d 8 C6 00 CA 00 BC 00 7A 00
   8.300000 1  100             Rx   d 8 C5 00 C9 00 BB 00 7B 00
   8.400000 1  100             Rx   d 8 C4 00 C8 00 BA 00 7B 00
   8.500000 1  100             Rx   d 8 C3 00 C7 00 B9 00 7B 00
   8.600000 1  100             Rx   d 8 C2 00 C6 00 B8 00 7B 00
   8.700000 1  100             Rx   d 8 C1 00 C5 00 B7 00 7B 00
   8.800000 1  100             Rx   d 8 C0 00 C4 00 B6 00 7C 00
   8.900000 1  100             Rx   d 8 BF 00 C3 00 B5 00 7C 00
   9.000000 1  100             Rx   d 8 BE 00 C2 00 B4 00 7C 00
   9.100000 1  100             Rx   d 8 BD 00 C1 00 B3 00 7C 00
   9.200000 1  100             Rx   d 8 BC 00 C0 00 B2 00 7C 00
   9.300000 1  100             Rx   d 8 BB 00 BF 00 B1 00 7D 00
   9.400000 1  100             Rx   d 8 BA 00 BE 00 B0 00 7D 00
   9.500000 1  100             Rx   d 8 B9 00 BD 00 AF 00 7D 00
   9.600000 1  100             Rx   d 8 B8 00 BC 00 AE 00 7D 00
   9.700000 1  100             Rx   d 8 B7 00 BB 00 AD 00 7D 00
   9.800000 1  100             Rx   d 8 B6 00 BA 00 AC 00 7E 00
   9.900000 1  100             Rx   d 8 B5 00 B9 00 AB 00 7E 00
   10.000000 1  100             Rx   d 8 B4 00 B8 00 AA 00 7E 00
   10.100000 1  100             Rx   d 8 B3 00 B7 00 A9 00 7E 00
   10.200000 1  100             Rx   d 8 B2 00 B6 00 A8 00 7E 00
   10.300000 1  100             Rx   d 8 B1 00 B5 00 A7 00 7F 00
   10.400000 1  100             Rx   d 8 B0 00 B4 00 A6 00 7F 00
   10.500000 1  100             Rx   d 8 AF 00 B3 00 A5 00 7F 00
   10.600000 1  100             Rx   d 8 AE 00 B2 00 A4 00 7F 00
   10.700000 1  100             Rx   d 8 AD 00 B1 00 A3 00 7F 00
   10.800000 1  100             Rx   d 8 AC 00 B0 00 A2 00 80 00
   10.900000 1  100             Rx   d 8 AB 00 AF 00 A1 00 80 00
   11.000000 1  100             Rx   d 8 AA 00 AE 00 A0 00 80 00
   11.100000 1  100             Rx   d 8 A9 00 AD 00 9F 00 80 00
   11.200000 1  100             Rx   d 8 A8 00 AC 00 9E 00 80 00
   11.300000 1  100             Rx   d 8 A7 00 AB 00 9D 00 81 00
   11.400000 1  100             Rx   d 8 A6 00 AA 00 9C 00 81 00
   11.500000 1  100             Rx   d 8 A5 00 A9 00 9B 00 81 00
   11.600000 1  100             Rx   d 8 A4 00 A8 00 9A 00 81 00
   11.700000 1  100             Rx   d 8 A3 00 A7 00 99 00 81 00
   11.800000 1  100             Rx   d 8 A2 00 A6 00 98 00 82 00
   11.900000 1  100             Rx   d 8 A1 00 A5 00 97 00 82 00
   12.000000 1  100             Rx   d 8 A0 00 A4 00 96 00 82 00
   12.100000 1  100             Rx   d 8 9F 00 A3 00 95 00 82 00
   12.200000 1  100             Rx   d 8 9E 00 A2 00 94 00 82 00
   12.300000 1  100             Rx   d 8 9D 00 A1 00 93 00 83 00
   12.400000 1  100             Rx   d 8 9C 00 A0 00 92 00 83 00
   12.500000 1  100             Rx   d 8 9B 00 9F 00 91 00 83 00
   12.600000 1  100             Rx   d 8 9A 00 9E 00 90 00 83 00
   12.700000 1  100             Rx   d 8 99 00 9D 00 8F 00 83 00
   12.800000 1  100             Rx   d 8 98 00 9C 00 8E 00 84 00
   12.900000 1  100             Rx   d 8 97 00 9B 00 8D 00 84 00
   13.000000 1  100             Rx   d 8 96 00 9A 00 8C 00 84 00
   13.100000 1  100             Rx   d 8 95 00 99 00 8B 00 84 00
   13.200000 1  100             Rx   d 8 94 00 98 00 8A 00 84 00
   13.300000 1  100             Rx   d 8 93 00 97 00 89 00 85 00
   13.400000 1  100             Rx   d 8 92 00 96 00 88 00 85 00
   13.500000 1  100             Rx   d 8 91 00 95 00 87 00 85 00
   13.600000 1  100             Rx   d 8 90 00 94 00 86 00 85 00
   13.700000 1  100             Rx   d 8 8F 00 93 00 85 00 85 00
   13.800000 1  100             Rx   d 8 8E 00 92 00 84 00 86 00
   13.900000 1  100             Rx   d 8 8D 00 91 00 83 00 86 00
End TriggerBlock
